V_in,I_in,I_out,V_out
18,291,368,14.43
19,393,506,14.41
20,496,567,14.40
21,406,567,14.40
22,395,578,14.40
23,385,588,14.40
24,375,596,14.40
25,364,601,14.40
26,352,604,14.40
27,341,607,14.40
28,331,609,14.40
29,321,611,14.40
30,312,614,14.40
31,302,616,14.40
32,294,619,14.40
33,287,621,14.40
34,281,624,14.40
35,274,626,14.40
36,267,628,14.41
37,262,632,14.41
38,256,633,14.41
39,251,635,14.41
40,245,637,14.41
41,240,639,14.41
42,235,641,14.41